
T2B88 000:036 SEGGER J-Link V4.62 Log File (0000ms, 0036ms total)
T2B88 000:036 DLL Compiled: Jan 25 2013 15:19:47 (0000ms, 0036ms total)
T2B88 000:036 Logging started @ 2017-03-04 15:11 (0000ms, 0036ms total)
T2B88 000:037 JLINK_SetWarnOutHandler(...) (0000ms, 0036ms total)
T2B88 000:037 JLINK_OpenEx(...)
Firmware: J-Link ARM-OB STM32 compiled Aug 22 2012 19:52:04
Hardware: V7.00
S/N: 20090928
Feature(s): RDI,FlashDL,FlashBP,JFlash,GDBFull  returns O.K. (0007ms, 0043ms total)
T2B88 000:044 JLINK_SetErrorOutHandler(...) (0000ms, 0043ms total)
T2B88 000:044 JLINK_ExecCommand("ProjectFile = "C:\Users\HaiRong_Chen\Desktop\lock\lock\dis_offset\Project\RVMDK£¨uv4£©\JLinkSettings.ini"", ...)  returns 0x00 (0000ms, 0043ms total)
T2B88 000:047 JLINK_ExecCommand("Device = STM32F103C8", ...)
                JLINK_ExecCommand("map ram 0x20000000 - 0x20004FFF", ...)  returns 0x00 (0000ms, 0000ms total)
                JLINK_AddMirrorAreaEx(Addr = 0x00000000, Size = 0x00000000) (0000ms, 0000ms total)
              Device "STM32F103C8" selected (64 KB flash, 20 KB RAM).  returns 0x00 (0006ms, 0050ms total)
T2B88 000:053 JLINK_ExecCommand("DisableConnectionTimeout", ...)  returns 0x00 (0000ms, 0050ms total)
T2B88 000:053 JLINK_TIF_Select(JLINKARM_TIF_SWD)  returns 0x00 (0000ms, 0050ms total)
T2B88 000:053 JLINK_SetSpeed(5000) (0001ms, 0051ms total)
T2B88 000:054 JLINK_GetHardwareVersion()  returns 0x11170 (0000ms, 0051ms total)
T2B88 000:054 JLINK_GetDLLVersion()  returns 46200 (0000ms, 0051ms total)
T2B88 000:054 JLINK_GetFirmwareString(...) (0000ms, 0051ms total)
T2B88 000:061 JLINK_GetDLLVersion()  returns 46200 (0000ms, 0051ms total)
T2B88 000:061 JLINK_GetCompileDateTime() (0000ms, 0051ms total)
T2B88 000:063 JLINK_GetFirmwareString(...) (0000ms, 0051ms total)
T2B88 000:064 JLINK_GetHardwareVersion()  returns 0x11170 (0000ms, 0051ms total)
T2B88 000:070 JLINK_GetId() >0x108 TIF>Found SWD-DP with ID 0x1BA01477 >0x0D TIF> >0x28 TIF> >0x0D TIF> >0x28 TIF> >0x0D TIF> >0x21 TIF> >0x0D TIF> >0x28 TIF> >0x0D TIF> >0x28 TIF> >0x0D TIF> >0x28 TIF> >0x0D TIF> >0x21 TIF> >0x0D TIF> >0x21 TIF> >0x0D TIF> >0x28 TIF> >0x0D TIF> >0x21 TIF> >0x0D TIF> >0x21 TIF> >0x108 TIF>Found SWD-DP with ID 0x1BA01477 >0x0D TIF> >0x21 TIF> >0x0D TIF> >0x28 TIF> >0x0D TIF> >0x28 TIF> >0x0D TIF> >0x21 TIF> >0x0D TIF> >0x21 TIF> >0x0D TIF> >0x28 TIF> >0x0D TIF> >0x21 TIF>
 >0x0D TIF> >0x21 TIF> >0x0D TIF> >0x21 TIF> >0x0D TIF> >0x21 TIF> >0x0D TIF> >0x21 TIF> >0x0D TIF> >0x28 TIF> >0x0D TIF> >0x28 TIF> >0x0D TIF> >0x21 TIF> >0x0D TIF> >0x21 TIF> >0x0D TIF> >0x28 TIF> >0x0D TIF> >0x21 TIF> >0x0D TIF> >0x21 TIF> >0x0D TIF> >0x28 TIF> >0x0D TIF> >0x28 TIF> >0x0D TIF> >0x28 TIF> >0x0D TIF> >0x21 TIF> >0x0D TIF> >0x21 TIF> >0x0D TIF> >0x28 TIF> >0x0D TIF> >0x28 TIF> >0x0D TIF> >0x28 TIF> >0x0D TIF> >0x21 TIF> >0x0D TIF> >0x21 TIF> >0x0D TIF> >0x21 TIF>TPIU fitted.ETM fitted.
 >0x0D TIF> >0x28 TIF> >0x0D TIF> >0x21 TIF> >0x0D TIF> >0x21 TIF> >0x0D TIF> >0x28 TIF> >0x0D TIF> >0x21 TIF> >0x0D TIF> >0x21 TIF>FPUnit: 6 code (BP) slots and 2 literal slots >0x0D TIF> >0x28 TIF> >0x0D TIF> >0x21 TIF> >0x0D TIF> >0x21 TIF> >0x0D TIF> >0x28 TIF> >0x0D TIF> >0x21 TIF> >0x0D TIF> >0x21 TIF> >0x0D TIF> >0x28 TIF> >0x0D TIF> >0x21 TIF> >0x0D TIF> >0x21 TIF> >0x0D TIF> >0x28 TIF> >0x0D TIF> >0x21 TIF> >0x0D TIF> >0x21 TIF>Found Cortex-M3 r1p1, Little endian. >0x0D TIF> >0x21 TIF>
  returns 0x1BA01477 (0045ms, 0096ms total)
T2B88 000:115 JLINK_GetDeviceFamily()  returns 3 (0000ms, 0096ms total)
T2B88 000:116 JLINK_ReadMem (0xE00FFFF0, 0x0010 Bytes, ...) -- CPU is running -- CPU_ReadMem(16 bytes @ 0xE00FFFF0) -- Data:  0D 00 00 00 10 00 00 00 05 00 00 00 B1 00 00 00  returns 0x00 (0001ms, 0097ms total)
T2B88 000:117 JLINK_ReadMem (0xE00FFFD0, 0x0020 Bytes, ...) -- CPU is running -- CPU_ReadMem(32 bytes @ 0xE00FFFD0) -- Data:  00 00 00 00 00 00 00 00 00 00 00 00 00 00 00 00 ...  returns 0x00 (0001ms, 0098ms total)
T2B88 000:118 JLINK_ReadMem (0xE00FF000, 0x0018 Bytes, ...) -- CPU is running -- CPU_ReadMem(24 bytes @ 0xE00FF000) -- Data:  03 F0 F0 FF 03 20 F0 FF 03 30 F0 FF 03 10 F0 FF ...  returns 0x00 (0001ms, 0099ms total)
T2B88 000:119 JLINK_ReadMemU32(0xE000ED00, 0x0001 Items, ...) -- CPU is running -- CPU_ReadMem(4 bytes @ 0xE000ED00) -- Data:  31 C2 1F 41  returns 0x01 (0000ms, 0099ms total)
T2B88 000:119 JLINK_SetResetType(JLINKARM_RESET_TYPE_NORMAL)  returns JLINKARM_RESET_TYPE_NORMAL (0001ms, 0100ms total)
T2B88 000:120 JLINK_Reset() -- CPU is running -- CPU_WriteMem(4 bytes @ 0xE000EDF0) -- CPU is running -- CPU_WriteMem(4 bytes @ 0xE000EDFC) >0x35 TIF> -- CPU is running -- CPU_WriteMem(4 bytes @ 0xE000ED0C) -- CPU is running -- CPU_ReadMem(4 bytes @ 0xE000EDF0) -- CPU is running -- CPU_ReadMem(4 bytes @ 0xE000EDF0) -- CPU is running -- CPU_WriteMem(4 bytes @ 0xE000EDF0) -- CPU is running -- CPU_WriteMem(4 bytes @ 0xE000EDFC) -- CPU is running -- CPU_ReadMem(4 bytes @ 0xE000EDF0)
 -- CPU_WriteMem(4 bytes @ 0xE0002000) (0022ms, 0122ms total)
T2B88 000:142 JLINK_Halt()  returns 0x00 (0000ms, 0122ms total)
T2B88 000:142 JLINK_IsHalted()  returns TRUE (0000ms, 0122ms total)
T2B88 000:142 JLINK_ReadMemU32(0xE000EDF0, 0x0001 Items, ...) -- CPU_ReadMem(4 bytes @ 0xE000EDF0) -- Data:  03 00 03 00  returns 0x01 (0001ms, 0123ms total)
T2B88 000:143 JLINK_WriteU32(0xE000EDF0, 0xA05F0003) -- CPU_WriteMem(4 bytes @ 0xE000EDF0)  returns 0x00 (0001ms, 0124ms total)
T2B88 000:144 JLINK_WriteU32(0xE000EDFC, 0x01000000) -- CPU_WriteMem(4 bytes @ 0xE000EDFC)  returns 0x00 (0001ms, 0125ms total)
T2B88 000:156 JLINK_GetHWStatus(...)  returns 0x00 (0000ms, 0125ms total)
T2B88 000:161 JLINK_GetNumBPUnits(Type = 0xFFFFFF00)  returns 0x06 (0000ms, 0125ms total)
T2B88 000:161 JLINK_GetNumBPUnits(Type = 0xF0)  returns 0x2000 (0000ms, 0125ms total)
T2B88 000:161 JLINK_GetNumWPUnits()  returns 0x04 (0000ms, 0125ms total)
T2B88 000:165 JLINK_GetSpeed()  returns 0xFA0 (0000ms, 0125ms total)
T2B88 000:168 JLINK_ReadMemU32(0xE000E004, 0x0001 Items, ...) -- CPU_ReadMem(4 bytes @ 0xE000E004) -- Data:  01 00 00 00  returns 0x01 (0000ms, 0125ms total)
T2B88 000:168 JLINK_ReadMemU32(0xE000E004, 0x0001 Items, ...) -- CPU_ReadMem(4 bytes @ 0xE000E004) -- Data:  01 00 00 00  returns 0x01 (0001ms, 0126ms total)
T2B88 000:169 JLINK_WriteMem(0xE0001000, 0x001C Bytes, ...) -- Data:  01 00 00 00 00 00 00 00 00 00 00 00 00 00 00 00 ... -- CPU_WriteMem(28 bytes @ 0xE0001000)  returns 0x1C (0002ms, 0128ms total)
T2B88 000:171 JLINK_ReadMem (0xE0001000, 0x001C Bytes, ...) -- CPU_ReadMem(28 bytes @ 0xE0001000) -- Data:  01 00 00 40 00 00 00 00 00 00 00 00 00 00 00 00 ...  returns 0x00 (0001ms, 0129ms total)
T2B88 000:172 JLINK_Halt()  returns 0x00 (0000ms, 0129ms total)
T2B88 000:172 JLINK_IsHalted()  returns TRUE (0000ms, 0129ms total)
T2B88 000:178 JLINK_WriteMem(0x20000000, 0x0164 Bytes, ...) -- Data:  00 BE 0A E0 0D 78 2D 06 68 40 08 24 40 00 00 D3 ... -- CPU_WriteMem(356 bytes @ 0x20000000)  returns 0x164 (0005ms, 0134ms total)
T2B88 000:183 JLINK_WriteReg(R0, 0x08000000)  returns 0x00 (0000ms, 0134ms total)
T2B88 000:183 JLINK_WriteReg(R1, 0x007A1200)  returns 0x00 (0000ms, 0134ms total)
T2B88 000:183 JLINK_WriteReg(R2, 0x00000001)  returns 0x00 (0000ms, 0134ms total)
T2B88 000:183 JLINK_WriteReg(R3, 0x00000000)  returns 0x00 (0000ms, 0134ms total)
T2B88 000:183 JLINK_WriteReg(R4, 0x00000000)  returns 0x00 (0000ms, 0134ms total)
T2B88 000:183 JLINK_WriteReg(R5, 0x00000000)  returns 0x00 (0000ms, 0134ms total)
T2B88 000:183 JLINK_WriteReg(R6, 0x00000000)  returns 0x00 (0000ms, 0134ms total)
T2B88 000:183 JLINK_WriteReg(R7, 0x00000000)  returns 0x00 (0000ms, 0134ms total)
T2B88 000:183 JLINK_WriteReg(R8, 0x00000000)  returns 0x00 (0000ms, 0134ms total)
T2B88 000:183 JLINK_WriteReg(R9, 0x20000160)  returns 0x00 (0000ms, 0134ms total)
T2B88 000:183 JLINK_WriteReg(R10, 0x00000000)  returns 0x00 (0000ms, 0134ms total)
T2B88 000:183 JLINK_WriteReg(R11, 0x00000000)  returns 0x00 (0000ms, 0134ms total)
T2B88 000:183 JLINK_WriteReg(R12, 0x00000000)  returns 0x00 (0000ms, 0134ms total)
T2B88 000:183 JLINK_WriteReg(R13, 0x20000800)  returns 0x00 (0000ms, 0134ms total)
T2B88 000:183 JLINK_WriteReg(R14, 0x20000001)  returns 0x00 (0000ms, 0134ms total)
T2B88 000:183 JLINK_WriteReg(R15, 0x20000038)  returns 0x00 (0000ms, 0134ms total)
T2B88 000:183 JLINK_WriteReg(XPSR, 0x01000000)  returns 0x00 (0000ms, 0134ms total)
T2B88 000:183 JLINK_WriteReg(MSP, 0x20000800)  returns 0x00 (0000ms, 0134ms total)
T2B88 000:183 JLINK_WriteReg(PSP, 0x20000800)  returns 0x00 (0000ms, 0134ms total)
T2B88 000:183 JLINK_WriteReg(CFBP, 0x00000000)  returns 0x00 (0000ms, 0134ms total)
T2B88 000:183 JLINK_SetBPEx(Addr = 0x20000000, Type = 0xFFFFFFF2) -- CPU_ReadMem(2 bytes @ 0x20000000)  returns 0x00000001 (0001ms, 0135ms total)
T2B88 000:184 JLINK_Go() -- CPU_WriteMem(2 bytes @ 0x20000000) -- CPU_WriteMem(4 bytes @ 0xE0002008) -- CPU_WriteMem(4 bytes @ 0xE000200C) -- CPU_WriteMem(4 bytes @ 0xE0002010) -- CPU_WriteMem(4 bytes @ 0xE0002014) -- CPU_WriteMem(4 bytes @ 0xE0002018) -- CPU_WriteMem(4 bytes @ 0xE000201C) (0009ms, 0144ms total)
T2B88 000:193 JLINK_IsHalted() -- CPU_ReadMem(2 bytes @ 0x20000000)  returns TRUE (0004ms, 0148ms total)
T2B88 000:197 JLINK_ReadReg(R15)  returns 0x20000000 (0000ms, 0144ms total)
T2B88 000:197 JLINK_ClrBPEx(BPHandle = 0x00000001)  returns 0x00 (0000ms, 0144ms total)
T2B88 000:197 JLINK_ReadReg(R0)  returns 0x00000000 (0000ms, 0144ms total)
T2B88 000:197 JLINK_WriteReg(R0, 0x08000000)  returns 0x00 (0000ms, 0144ms total)
T2B88 000:197 JLINK_WriteReg(R1, 0x007A1200)  returns 0x00 (0000ms, 0144ms total)
T2B88 000:197 JLINK_WriteReg(R2, 0x00000001)  returns 0x00 (0000ms, 0144ms total)
T2B88 000:197 JLINK_WriteReg(R3, 0x00000000)  returns 0x00 (0000ms, 0144ms total)
T2B88 000:197 JLINK_WriteReg(R4, 0x00000000)  returns 0x00 (0000ms, 0144ms total)
T2B88 000:197 JLINK_WriteReg(R5, 0x00000000)  returns 0x00 (0000ms, 0144ms total)
T2B88 000:197 JLINK_WriteReg(R6, 0x00000000)  returns 0x00 (0000ms, 0144ms total)
T2B88 000:197 JLINK_WriteReg(R7, 0x00000000)  returns 0x00 (0000ms, 0144ms total)
T2B88 000:197 JLINK_WriteReg(R8, 0x00000000)  returns 0x00 (0000ms, 0144ms total)
T2B88 000:197 JLINK_WriteReg(R9, 0x20000160)  returns 0x00 (0000ms, 0144ms total)
T2B88 000:197 JLINK_WriteReg(R10, 0x00000000)  returns 0x00 (0000ms, 0144ms total)
T2B88 000:197 JLINK_WriteReg(R11, 0x00000000)  returns 0x00 (0000ms, 0144ms total)
T2B88 000:197 JLINK_WriteReg(R12, 0x00000000)  returns 0x00 (0000ms, 0144ms total)
T2B88 000:197 JLINK_WriteReg(R13, 0x20000800)  returns 0x00 (0001ms, 0145ms total)
T2B88 000:198 JLINK_WriteReg(R14, 0x20000001)  returns 0x00 (0000ms, 0145ms total)
T2B88 000:198 JLINK_WriteReg(R15, 0x2000007C)  returns 0x00 (0000ms, 0145ms total)
T2B88 000:198 JLINK_WriteReg(XPSR, 0x01000000)  returns 0x00 (0000ms, 0145ms total)
T2B88 000:198 JLINK_WriteReg(MSP, 0x20000800)  returns 0x00 (0000ms, 0145ms total)
T2B88 000:198 JLINK_WriteReg(PSP, 0x20000800)  returns 0x00 (0000ms, 0145ms total)
T2B88 000:198 JLINK_WriteReg(CFBP, 0x00000000)  returns 0x00 (0000ms, 0145ms total)
T2B88 000:198 JLINK_SetBPEx(Addr = 0x20000000, Type = 0xFFFFFFF2)  returns 0x00000002 (0000ms, 0145ms total)
T2B88 000:198 JLINK_Go() (0001ms, 0146ms total)
T2B88 000:199 JLINK_IsHalted()  returns FALSE (0001ms, 0147ms total)
T2B88 000:295 JLINK_IsHalted() -- CPU_ReadMem(2 bytes @ 0x20000000)  returns TRUE (0004ms, 0150ms total)
T2B88 000:299 JLINK_ReadReg(R15)  returns 0x20000000 (0000ms, 0146ms total)
T2B88 000:299 JLINK_ClrBPEx(BPHandle = 0x00000002)  returns 0x00 (0000ms, 0146ms total)
T2B88 000:299 JLINK_ReadReg(R0)  returns 0x00000000 (0000ms, 0146ms total)
T2B88 000:353 JLINK_WriteReg(R0, 0x00000001)  returns 0x00 (0000ms, 0146ms total)
T2B88 000:353 JLINK_WriteReg(R1, 0x007A1200)  returns 0x00 (0000ms, 0146ms total)
T2B88 000:353 JLINK_WriteReg(R2, 0x00000001)  returns 0x00 (0000ms, 0146ms total)
T2B88 000:353 JLINK_WriteReg(R3, 0x00000000)  returns 0x00 (0000ms, 0146ms total)
T2B88 000:353 JLINK_WriteReg(R4, 0x00000000)  returns 0x00 (0000ms, 0146ms total)
T2B88 000:353 JLINK_WriteReg(R5, 0x00000000)  returns 0x00 (0000ms, 0146ms total)
T2B88 000:353 JLINK_WriteReg(R6, 0x00000000)  returns 0x00 (0000ms, 0146ms total)
T2B88 000:353 JLINK_WriteReg(R7, 0x00000000)  returns 0x00 (0000ms, 0146ms total)
T2B88 000:353 JLINK_WriteReg(R8, 0x00000000)  returns 0x00 (0001ms, 0147ms total)
T2B88 000:354 JLINK_WriteReg(R9, 0x20000160)  returns 0x00 (0000ms, 0147ms total)
T2B88 000:354 JLINK_WriteReg(R10, 0x00000000)  returns 0x00 (0000ms, 0147ms total)
T2B88 000:354 JLINK_WriteReg(R11, 0x00000000)  returns 0x00 (0000ms, 0147ms total)
T2B88 000:354 JLINK_WriteReg(R12, 0x00000000)  returns 0x00 (0000ms, 0147ms total)
T2B88 000:354 JLINK_WriteReg(R13, 0x20000800)  returns 0x00 (0000ms, 0147ms total)
T2B88 000:354 JLINK_WriteReg(R14, 0x20000001)  returns 0x00 (0000ms, 0147ms total)
T2B88 000:354 JLINK_WriteReg(R15, 0x2000006A)  returns 0x00 (0000ms, 0147ms total)
T2B88 000:354 JLINK_WriteReg(XPSR, 0x01000000)  returns 0x00 (0000ms, 0147ms total)
T2B88 000:354 JLINK_WriteReg(MSP, 0x20000800)  returns 0x00 (0000ms, 0147ms total)
T2B88 000:354 JLINK_WriteReg(PSP, 0x20000800)  returns 0x00 (0000ms, 0147ms total)
T2B88 000:354 JLINK_WriteReg(CFBP, 0x00000000)  returns 0x00 (0000ms, 0147ms total)
T2B88 000:354 JLINK_SetBPEx(Addr = 0x20000000, Type = 0xFFFFFFF2)  returns 0x00000003 (0000ms, 0147ms total)
T2B88 000:354 JLINK_Go() (0001ms, 0148ms total)
T2B88 000:355 JLINK_IsHalted() -- CPU_ReadMem(2 bytes @ 0x20000000)  returns TRUE (0004ms, 0152ms total)
T2B88 000:359 JLINK_ReadReg(R15)  returns 0x20000000 (0000ms, 0148ms total)
T2B88 000:359 JLINK_ClrBPEx(BPHandle = 0x00000003)  returns 0x00 (0000ms, 0148ms total)
T2B88 000:359 JLINK_ReadReg(R0)  returns 0x00000000 (0000ms, 0148ms total)
T2B88 000:364 JLINK_WriteMem(0x20000000, 0x0164 Bytes, ...) -- Data:  00 BE 0A E0 0D 78 2D 06 68 40 08 24 40 00 00 D3 ... -- CPU_WriteMem(356 bytes @ 0x20000000)  returns 0x164 (0004ms, 0152ms total)
T2B88 000:368 JLINK_WriteReg(R0, 0x08000000)  returns 0x00 (0001ms, 0153ms total)
T2B88 000:369 JLINK_WriteReg(R1, 0x007A1200)  returns 0x00 (0000ms, 0153ms total)
T2B88 000:369 JLINK_WriteReg(R2, 0x00000002)  returns 0x00 (0000ms, 0153ms total)
T2B88 000:369 JLINK_WriteReg(R3, 0x00000000)  returns 0x00 (0000ms, 0153ms total)
T2B88 000:369 JLINK_WriteReg(R4, 0x00000000)  returns 0x00 (0000ms, 0153ms total)
T2B88 000:369 JLINK_WriteReg(R5, 0x00000000)  returns 0x00 (0000ms, 0153ms total)
T2B88 000:369 JLINK_WriteReg(R6, 0x00000000)  returns 0x00 (0000ms, 0153ms total)
T2B88 000:369 JLINK_WriteReg(R7, 0x00000000)  returns 0x00 (0000ms, 0153ms total)
T2B88 000:369 JLINK_WriteReg(R8, 0x00000000)  returns 0x00 (0000ms, 0153ms total)
T2B88 000:369 JLINK_WriteReg(R9, 0x20000160)  returns 0x00 (0000ms, 0153ms total)
T2B88 000:369 JLINK_WriteReg(R10, 0x00000000)  returns 0x00 (0000ms, 0153ms total)
T2B88 000:369 JLINK_WriteReg(R11, 0x00000000)  returns 0x00 (0000ms, 0153ms total)
T2B88 000:369 JLINK_WriteReg(R12, 0x00000000)  returns 0x00 (0000ms, 0153ms total)
T2B88 000:369 JLINK_WriteReg(R13, 0x20000800)  returns 0x00 (0000ms, 0153ms total)
T2B88 000:369 JLINK_WriteReg(R14, 0x20000001)  returns 0x00 (0000ms, 0153ms total)
T2B88 000:369 JLINK_WriteReg(R15, 0x20000038)  returns 0x00 (0000ms, 0153ms total)
T2B88 000:369 JLINK_WriteReg(XPSR, 0x01000000)  returns 0x00 (0000ms, 0153ms total)
T2B88 000:369 JLINK_WriteReg(MSP, 0x20000800)  returns 0x00 (0000ms, 0153ms total)
T2B88 000:369 JLINK_WriteReg(PSP, 0x20000800)  returns 0x00 (0000ms, 0153ms total)
T2B88 000:369 JLINK_WriteReg(CFBP, 0x00000000)  returns 0x00 (0000ms, 0153ms total)
T2B88 000:369 JLINK_SetBPEx(Addr = 0x20000000, Type = 0xFFFFFFF2) -- CPU_ReadMem(2 bytes @ 0x20000000)  returns 0x00000004 (0001ms, 0154ms total)
T2B88 000:370 JLINK_Go() -- CPU_WriteMem(2 bytes @ 0x20000000) (0002ms, 0156ms total)
T2B88 000:372 JLINK_IsHalted() -- CPU_ReadMem(2 bytes @ 0x20000000)  returns TRUE (0004ms, 0160ms total)
T2B88 000:376 JLINK_ReadReg(R15)  returns 0x20000000 (0000ms, 0156ms total)
T2B88 000:376 JLINK_ClrBPEx(BPHandle = 0x00000004)  returns 0x00 (0000ms, 0156ms total)
T2B88 000:376 JLINK_ReadReg(R0)  returns 0x00000000 (0000ms, 0156ms total)
T2B88 000:376 JLINK_WriteMem(0x20000164, 0x0400 Bytes, ...) -- Data:  A0 05 00 20 45 01 00 08 01 2A 00 08 03 2A 00 08 ... -- CPU_WriteMem(1024 bytes @ 0x20000164)  returns 0x400 (0012ms, 0168ms total)
T2B88 000:388 JLINK_WriteReg(R0, 0x08000000)  returns 0x00 (0000ms, 0168ms total)
T2B88 000:388 JLINK_WriteReg(R1, 0x00000400)  returns 0x00 (0001ms, 0169ms total)
T2B88 000:389 JLINK_WriteReg(R2, 0x20000164)  returns 0x00 (0000ms, 0169ms total)
T2B88 000:389 JLINK_WriteReg(R3, 0x00000000)  returns 0x00 (0000ms, 0169ms total)
T2B88 000:389 JLINK_WriteReg(R4, 0x00000000)  returns 0x00 (0000ms, 0169ms total)
T2B88 000:389 JLINK_WriteReg(R5, 0x00000000)  returns 0x00 (0000ms, 0169ms total)
T2B88 000:389 JLINK_WriteReg(R6, 0x00000000)  returns 0x00 (0000ms, 0169ms total)
T2B88 000:389 JLINK_WriteReg(R7, 0x00000000)  returns 0x00 (0000ms, 0169ms total)
T2B88 000:389 JLINK_WriteReg(R8, 0x00000000)  returns 0x00 (0000ms, 0169ms total)
T2B88 000:389 JLINK_WriteReg(R9, 0x20000160)  returns 0x00 (0000ms, 0169ms total)
T2B88 000:389 JLINK_WriteReg(R10, 0x00000000)  returns 0x00 (0000ms, 0169ms total)
T2B88 000:389 JLINK_WriteReg(R11, 0x00000000)  returns 0x00 (0000ms, 0169ms total)
T2B88 000:389 JLINK_WriteReg(R12, 0x00000000)  returns 0x00 (0000ms, 0169ms total)
T2B88 000:389 JLINK_WriteReg(R13, 0x20000800)  returns 0x00 (0000ms, 0169ms total)
T2B88 000:389 JLINK_WriteReg(R14, 0x20000001)  returns 0x00 (0000ms, 0169ms total)
T2B88 000:389 JLINK_WriteReg(R15, 0x200000F4)  returns 0x00 (0000ms, 0169ms total)
T2B88 000:389 JLINK_WriteReg(XPSR, 0x01000000)  returns 0x00 (0000ms, 0169ms total)
T2B88 000:389 JLINK_WriteReg(MSP, 0x20000800)  returns 0x00 (0000ms, 0169ms total)
T2B88 000:389 JLINK_WriteReg(PSP, 0x20000800)  returns 0x00 (0000ms, 0169ms total)
T2B88 000:389 JLINK_WriteReg(CFBP, 0x00000000)  returns 0x00 (0000ms, 0169ms total)
T2B88 000:389 JLINK_SetBPEx(Addr = 0x20000000, Type = 0xFFFFFFF2)  returns 0x00000005 (0000ms, 0169ms total)
T2B88 000:389 JLINK_Go() (0002ms, 0171ms total)
T2B88 000:391 JLINK_IsHalted()  returns FALSE (0001ms, 0172ms total)
T2B88 000:454 JLINK_IsHalted() -- CPU_ReadMem(2 bytes @ 0x20000000)  returns TRUE (0004ms, 0175ms total)
T2B88 000:458 JLINK_ReadReg(R15)  returns 0x20000000 (0000ms, 0171ms total)
T2B88 000:458 JLINK_ClrBPEx(BPHandle = 0x00000005)  returns 0x00 (0000ms, 0171ms total)
T2B88 000:458 JLINK_ReadReg(R0)  returns 0x00000000 (0000ms, 0171ms total)
T2B88 000:458 JLINK_WriteMem(0x20000164, 0x0400 Bytes, ...) -- Data:  21 F0 04 01 4F F0 E0 22 11 61 70 47 00 00 FA 05 ... -- CPU_WriteMem(1024 bytes @ 0x20000164)  returns 0x400 (0013ms, 0184ms total)
T2B88 000:471 JLINK_WriteReg(R0, 0x08000400)  returns 0x00 (0000ms, 0184ms total)
T2B88 000:471 JLINK_WriteReg(R1, 0x00000400)  returns 0x00 (0000ms, 0184ms total)
T2B88 000:471 JLINK_WriteReg(R2, 0x20000164)  returns 0x00 (0000ms, 0184ms total)
T2B88 000:471 JLINK_WriteReg(R3, 0x00000000)  returns 0x00 (0000ms, 0184ms total)
T2B88 000:471 JLINK_WriteReg(R4, 0x00000000)  returns 0x00 (0000ms, 0184ms total)
T2B88 000:471 JLINK_WriteReg(R5, 0x00000000)  returns 0x00 (0000ms, 0184ms total)
T2B88 000:471 JLINK_WriteReg(R6, 0x00000000)  returns 0x00 (0000ms, 0184ms total)
T2B88 000:471 JLINK_WriteReg(R7, 0x00000000)  returns 0x00 (0000ms, 0184ms total)
T2B88 000:471 JLINK_WriteReg(R8, 0x00000000)  returns 0x00 (0000ms, 0184ms total)
T2B88 000:471 JLINK_WriteReg(R9, 0x20000160)  returns 0x00 (0000ms, 0184ms total)
T2B88 000:471 JLINK_WriteReg(R10, 0x00000000)  returns 0x00 (0000ms, 0184ms total)
T2B88 000:471 JLINK_WriteReg(R11, 0x00000000)  returns 0x00 (0000ms, 0184ms total)
T2B88 000:471 JLINK_WriteReg(R12, 0x00000000)  returns 0x00 (0000ms, 0184ms total)
T2B88 000:471 JLINK_WriteReg(R13, 0x20000800)  returns 0x00 (0000ms, 0184ms total)
T2B88 000:471 JLINK_WriteReg(R14, 0x20000001)  returns 0x00 (0000ms, 0184ms total)
T2B88 000:471 JLINK_WriteReg(R15, 0x200000F4)  returns 0x00 (0000ms, 0184ms total)
T2B88 000:471 JLINK_WriteReg(XPSR, 0x01000000)  returns 0x00 (0000ms, 0184ms total)
T2B88 000:471 JLINK_WriteReg(MSP, 0x20000800)  returns 0x00 (0000ms, 0184ms total)
T2B88 000:471 JLINK_WriteReg(PSP, 0x20000800)  returns 0x00 (0000ms, 0184ms total)
T2B88 000:471 JLINK_WriteReg(CFBP, 0x00000000)  returns 0x00 (0000ms, 0184ms total)
T2B88 000:471 JLINK_SetBPEx(Addr = 0x20000000, Type = 0xFFFFFFF2)  returns 0x00000006 (0000ms, 0184ms total)
T2B88 000:471 JLINK_Go() (0002ms, 0186ms total)
T2B88 000:473 JLINK_IsHalted()  returns FALSE (0001ms, 0187ms total)
T2B88 000:479 JLINK_IsHalted()  returns FALSE (0002ms, 0188ms total)
T2B88 000:482 JLINK_IsHalted()  returns FALSE (0001ms, 0187ms total)
T2B88 000:485 JLINK_IsHalted()  returns FALSE (0000ms, 0186ms total)
T2B88 000:488 JLINK_IsHalted()  returns FALSE (0000ms, 0186ms total)
T2B88 000:495 JLINK_IsHalted()  returns FALSE (0001ms, 0187ms total)
T2B88 000:497 JLINK_IsHalted()  returns FALSE (0001ms, 0187ms total)
T2B88 000:499 JLINK_IsHalted()  returns FALSE (0001ms, 0187ms total)
T2B88 000:501 JLINK_IsHalted()  returns FALSE (0001ms, 0187ms total)
T2B88 000:506 JLINK_IsHalted() -- CPU_ReadMem(2 bytes @ 0x20000000)  returns TRUE (0005ms, 0191ms total)
T2B88 000:511 JLINK_ReadReg(R15)  returns 0x20000000 (0000ms, 0186ms total)
T2B88 000:511 JLINK_ClrBPEx(BPHandle = 0x00000006)  returns 0x00 (0000ms, 0186ms total)
T2B88 000:511 JLINK_ReadReg(R0)  returns 0x00000000 (0000ms, 0186ms total)
T2B88 000:511 JLINK_WriteMem(0x20000164, 0x0400 Bytes, ...) -- Data:  40 20 00 F0 F3 FA 16 E0 B1 48 84 42 08 D1 01 21 ... -- CPU_WriteMem(1024 bytes @ 0x20000164)  returns 0x400 (0012ms, 0198ms total)
T2B88 000:523 JLINK_WriteReg(R0, 0x08000800)  returns 0x00 (0000ms, 0198ms total)
T2B88 000:523 JLINK_WriteReg(R1, 0x00000400)  returns 0x00 (0000ms, 0198ms total)
T2B88 000:523 JLINK_WriteReg(R2, 0x20000164)  returns 0x00 (0000ms, 0198ms total)
T2B88 000:523 JLINK_WriteReg(R3, 0x00000000)  returns 0x00 (0001ms, 0199ms total)
T2B88 000:524 JLINK_WriteReg(R4, 0x00000000)  returns 0x00 (0000ms, 0199ms total)
T2B88 000:524 JLINK_WriteReg(R5, 0x00000000)  returns 0x00 (0000ms, 0199ms total)
T2B88 000:524 JLINK_WriteReg(R6, 0x00000000)  returns 0x00 (0000ms, 0199ms total)
T2B88 000:524 JLINK_WriteReg(R7, 0x00000000)  returns 0x00 (0000ms, 0199ms total)
T2B88 000:524 JLINK_WriteReg(R8, 0x00000000)  returns 0x00 (0000ms, 0199ms total)
T2B88 000:524 JLINK_WriteReg(R9, 0x20000160)  returns 0x00 (0000ms, 0199ms total)
T2B88 000:524 JLINK_WriteReg(R10, 0x00000000)  returns 0x00 (0000ms, 0199ms total)
T2B88 000:524 JLINK_WriteReg(R11, 0x00000000)  returns 0x00 (0000ms, 0199ms total)
T2B88 000:524 JLINK_WriteReg(R12, 0x00000000)  returns 0x00 (0000ms, 0199ms total)
T2B88 000:524 JLINK_WriteReg(R13, 0x20000800)  returns 0x00 (0000ms, 0199ms total)
T2B88 000:524 JLINK_WriteReg(R14, 0x20000001)  returns 0x00 (0000ms, 0199ms total)
T2B88 000:524 JLINK_WriteReg(R15, 0x200000F4)  returns 0x00 (0000ms, 0199ms total)
T2B88 000:524 JLINK_WriteReg(XPSR, 0x01000000)  returns 0x00 (0000ms, 0199ms total)
T2B88 000:524 JLINK_WriteReg(MSP, 0x20000800)  returns 0x00 (0000ms, 0199ms total)
T2B88 000:524 JLINK_WriteReg(PSP, 0x20000800)  returns 0x00 (0000ms, 0199ms total)
T2B88 000:524 JLINK_WriteReg(CFBP, 0x00000000)  returns 0x00 (0000ms, 0199ms total)
T2B88 000:524 JLINK_SetBPEx(Addr = 0x20000000, Type = 0xFFFFFFF2)  returns 0x00000007 (0000ms, 0199ms total)
T2B88 000:524 JLINK_Go() (0002ms, 0201ms total)
T2B88 000:526 JLINK_IsHalted()  returns FALSE (0001ms, 0202ms total)
T2B88 000:530 JLINK_IsHalted()  returns FALSE (0001ms, 0202ms total)
T2B88 000:532 JLINK_IsHalted()  returns FALSE (0001ms, 0202ms total)
T2B88 000:560 JLINK_IsHalted() -- CPU_ReadMem(2 bytes @ 0x20000000)  returns TRUE (0005ms, 0206ms total)
T2B88 000:565 JLINK_ReadReg(R15)  returns 0x20000000 (0000ms, 0201ms total)
T2B88 000:565 JLINK_ClrBPEx(BPHandle = 0x00000007)  returns 0x00 (0000ms, 0201ms total)
T2B88 000:565 JLINK_ReadReg(R0)  returns 0x00000000 (0000ms, 0201ms total)
T2B88 000:568 JLINK_WriteMem(0x20000164, 0x0400 Bytes, ...) -- Data:  42 EA 01 03 18 43 95 4B 58 60 70 47 96 49 08 66 ... -- CPU_WriteMem(1024 bytes @ 0x20000164)  returns 0x400 (0013ms, 0214ms total)
T2B88 000:581 JLINK_WriteReg(R0, 0x08000C00)  returns 0x00 (0000ms, 0214ms total)
T2B88 000:581 JLINK_WriteReg(R1, 0x00000400)  returns 0x00 (0000ms, 0214ms total)
T2B88 000:581 JLINK_WriteReg(R2, 0x20000164)  returns 0x00 (0000ms, 0214ms total)
T2B88 000:581 JLINK_WriteReg(R3, 0x00000000)  returns 0x00 (0000ms, 0214ms total)
T2B88 000:581 JLINK_WriteReg(R4, 0x00000000)  returns 0x00 (0000ms, 0214ms total)
T2B88 000:581 JLINK_WriteReg(R5, 0x00000000)  returns 0x00 (0000ms, 0214ms total)
T2B88 000:581 JLINK_WriteReg(R6, 0x00000000)  returns 0x00 (0000ms, 0214ms total)
T2B88 000:581 JLINK_WriteReg(R7, 0x00000000)  returns 0x00 (0000ms, 0214ms total)
T2B88 000:581 JLINK_WriteReg(R8, 0x00000000)  returns 0x00 (0000ms, 0214ms total)
T2B88 000:581 JLINK_WriteReg(R9, 0x20000160)  returns 0x00 (0000ms, 0214ms total)
T2B88 000:581 JLINK_WriteReg(R10, 0x00000000)  returns 0x00 (0000ms, 0214ms total)
T2B88 000:581 JLINK_WriteReg(R11, 0x00000000)  returns 0x00 (0000ms, 0214ms total)
T2B88 000:581 JLINK_WriteReg(R12, 0x00000000)  returns 0x00 (0000ms, 0214ms total)
T2B88 000:581 JLINK_WriteReg(R13, 0x20000800)  returns 0x00 (0000ms, 0214ms total)
T2B88 000:581 JLINK_WriteReg(R14, 0x20000001)  returns 0x00 (0000ms, 0214ms total)
T2B88 000:581 JLINK_WriteReg(R15, 0x200000F4)  returns 0x00 (0000ms, 0214ms total)
T2B88 000:581 JLINK_WriteReg(XPSR, 0x01000000)  returns 0x00 (0000ms, 0214ms total)
T2B88 000:581 JLINK_WriteReg(MSP, 0x20000800)  returns 0x00 (0000ms, 0214ms total)
T2B88 000:581 JLINK_WriteReg(PSP, 0x20000800)  returns 0x00 (0000ms, 0214ms total)
T2B88 000:581 JLINK_WriteReg(CFBP, 0x00000000)  returns 0x00 (0000ms, 0214ms total)
T2B88 000:581 JLINK_SetBPEx(Addr = 0x20000000, Type = 0xFFFFFFF2)  returns 0x00000008 (0000ms, 0214ms total)
T2B88 000:581 JLINK_Go() (0002ms, 0216ms total)
T2B88 000:583 JLINK_IsHalted()  returns FALSE (0001ms, 0217ms total)
T2B88 000:588 JLINK_IsHalted()  returns FALSE (0001ms, 0217ms total)
T2B88 000:591 JLINK_IsHalted()  returns FALSE (0000ms, 0216ms total)
T2B88 000:593 JLINK_IsHalted()  returns FALSE (0001ms, 0217ms total)
T2B88 000:596 JLINK_IsHalted()  returns FALSE (0001ms, 0217ms total)
T2B88 000:598 JLINK_IsHalted()  returns FALSE (0001ms, 0217ms total)
T2B88 000:600 JLINK_IsHalted()  returns FALSE (0001ms, 0217ms total)
T2B88 000:604 JLINK_IsHalted()  returns FALSE (0001ms, 0217ms total)
T2B88 000:606 JLINK_IsHalted()  returns FALSE (0001ms, 0217ms total)
T2B88 000:608 JLINK_IsHalted()  returns FALSE (0001ms, 0217ms total)
T2B88 000:611 JLINK_IsHalted()  returns FALSE (0000ms, 0216ms total)
T2B88 000:617 JLINK_IsHalted() -- CPU_ReadMem(2 bytes @ 0x20000000)  returns TRUE (0004ms, 0220ms total)
T2B88 000:621 JLINK_ReadReg(R15)  returns 0x20000000 (0000ms, 0216ms total)
T2B88 000:621 JLINK_ClrBPEx(BPHandle = 0x00000008)  returns 0x00 (0000ms, 0216ms total)
T2B88 000:621 JLINK_ReadReg(R0)  returns 0x00000000 (0000ms, 0216ms total)
T2B88 000:621 JLINK_WriteMem(0x20000164, 0x0400 Bytes, ...) -- Data:  09 D1 01 21 48 04 FF F7 F1 FE 00 21 4F F4 00 30 ... -- CPU_WriteMem(1024 bytes @ 0x20000164)  returns 0x400 (0013ms, 0229ms total)
T2B88 000:634 JLINK_WriteReg(R0, 0x08001000)  returns 0x00 (0000ms, 0229ms total)
T2B88 000:634 JLINK_WriteReg(R1, 0x00000400)  returns 0x00 (0000ms, 0229ms total)
T2B88 000:634 JLINK_WriteReg(R2, 0x20000164)  returns 0x00 (0000ms, 0229ms total)
T2B88 000:634 JLINK_WriteReg(R3, 0x00000000)  returns 0x00 (0000ms, 0229ms total)
T2B88 000:634 JLINK_WriteReg(R4, 0x00000000)  returns 0x00 (0000ms, 0229ms total)
T2B88 000:634 JLINK_WriteReg(R5, 0x00000000)  returns 0x00 (0000ms, 0229ms total)
T2B88 000:634 JLINK_WriteReg(R6, 0x00000000)  returns 0x00 (0000ms, 0229ms total)
T2B88 000:634 JLINK_WriteReg(R7, 0x00000000)  returns 0x00 (0000ms, 0229ms total)
T2B88 000:634 JLINK_WriteReg(R8, 0x00000000)  returns 0x00 (0000ms, 0229ms total)
T2B88 000:634 JLINK_WriteReg(R9, 0x20000160)  returns 0x00 (0000ms, 0229ms total)
T2B88 000:634 JLINK_WriteReg(R10, 0x00000000)  returns 0x00 (0000ms, 0229ms total)
T2B88 000:634 JLINK_WriteReg(R11, 0x00000000)  returns 0x00 (0000ms, 0229ms total)
T2B88 000:634 JLINK_WriteReg(R12, 0x00000000)  returns 0x00 (0000ms, 0229ms total)
T2B88 000:634 JLINK_WriteReg(R13, 0x20000800)  returns 0x00 (0000ms, 0229ms total)
T2B88 000:634 JLINK_WriteReg(R14, 0x20000001)  returns 0x00 (0000ms, 0229ms total)
T2B88 000:634 JLINK_WriteReg(R15, 0x200000F4)  returns 0x00 (0000ms, 0229ms total)
T2B88 000:634 JLINK_WriteReg(XPSR, 0x01000000)  returns 0x00 (0000ms, 0229ms total)
T2B88 000:634 JLINK_WriteReg(MSP, 0x20000800)  returns 0x00 (0000ms, 0229ms total)
T2B88 000:634 JLINK_WriteReg(PSP, 0x20000800)  returns 0x00 (0000ms, 0229ms total)
T2B88 000:634 JLINK_WriteReg(CFBP, 0x00000000)  returns 0x00 (0000ms, 0229ms total)
T2B88 000:634 JLINK_SetBPEx(Addr = 0x20000000, Type = 0xFFFFFFF2)  returns 0x00000009 (0000ms, 0229ms total)
T2B88 000:634 JLINK_Go() (0002ms, 0231ms total)
T2B88 000:636 JLINK_IsHalted()  returns FALSE (0000ms, 0231ms total)
T2B88 000:640 JLINK_IsHalted()  returns FALSE (0001ms, 0232ms total)
T2B88 000:665 JLINK_IsHalted()  returns FALSE (0000ms, 0231ms total)
T2B88 000:667 JLINK_IsHalted() -- CPU_ReadMem(2 bytes @ 0x20000000)  returns TRUE (0005ms, 0236ms total)
T2B88 000:672 JLINK_ReadReg(R15)  returns 0x20000000 (0000ms, 0231ms total)
T2B88 000:672 JLINK_ClrBPEx(BPHandle = 0x00000009)  returns 0x00 (0000ms, 0231ms total)
T2B88 000:672 JLINK_ReadReg(R0)  returns 0x00000000 (0000ms, 0231ms total)
T2B88 000:672 JLINK_WriteMem(0x20000164, 0x0400 Bytes, ...) -- Data:  B8 42 0B D0 B0 F1 80 4F 08 D0 B4 4F B8 42 05 D0 ... -- CPU_WriteMem(1024 bytes @ 0x20000164)  returns 0x400 (0012ms, 0243ms total)
T2B88 000:684 JLINK_WriteReg(R0, 0x08001400)  returns 0x00 (0000ms, 0243ms total)
T2B88 000:684 JLINK_WriteReg(R1, 0x00000400)  returns 0x00 (0000ms, 0243ms total)
T2B88 000:684 JLINK_WriteReg(R2, 0x20000164)  returns 0x00 (0000ms, 0243ms total)
T2B88 000:684 JLINK_WriteReg(R3, 0x00000000)  returns 0x00 (0000ms, 0243ms total)
T2B88 000:684 JLINK_WriteReg(R4, 0x00000000)  returns 0x00 (0001ms, 0244ms total)
T2B88 000:685 JLINK_WriteReg(R5, 0x00000000)  returns 0x00 (0000ms, 0244ms total)
T2B88 000:685 JLINK_WriteReg(R6, 0x00000000)  returns 0x00 (0000ms, 0244ms total)
T2B88 000:685 JLINK_WriteReg(R7, 0x00000000)  returns 0x00 (0000ms, 0244ms total)
T2B88 000:685 JLINK_WriteReg(R8, 0x00000000)  returns 0x00 (0000ms, 0244ms total)
T2B88 000:685 JLINK_WriteReg(R9, 0x20000160)  returns 0x00 (0000ms, 0244ms total)
T2B88 000:685 JLINK_WriteReg(R10, 0x00000000)  returns 0x00 (0000ms, 0244ms total)
T2B88 000:685 JLINK_WriteReg(R11, 0x00000000)  returns 0x00 (0000ms, 0244ms total)
T2B88 000:685 JLINK_WriteReg(R12, 0x00000000)  returns 0x00 (0000ms, 0244ms total)
T2B88 000:685 JLINK_WriteReg(R13, 0x20000800)  returns 0x00 (0000ms, 0244ms total)
T2B88 000:685 JLINK_WriteReg(R14, 0x20000001)  returns 0x00 (0000ms, 0244ms total)
T2B88 000:685 JLINK_WriteReg(R15, 0x200000F4)  returns 0x00 (0000ms, 0244ms total)
T2B88 000:685 JLINK_WriteReg(XPSR, 0x01000000)  returns 0x00 (0000ms, 0244ms total)
T2B88 000:685 JLINK_WriteReg(MSP, 0x20000800)  returns 0x00 (0000ms, 0244ms total)
T2B88 000:685 JLINK_WriteReg(PSP, 0x20000800)  returns 0x00 (0000ms, 0244ms total)
T2B88 000:685 JLINK_WriteReg(CFBP, 0x00000000)  returns 0x00 (0000ms, 0244ms total)
T2B88 000:685 JLINK_SetBPEx(Addr = 0x20000000, Type = 0xFFFFFFF2)  returns 0x0000000A (0000ms, 0244ms total)
T2B88 000:685 JLINK_Go() (0003ms, 0247ms total)
T2B88 000:688 JLINK_IsHalted()  returns FALSE (0001ms, 0248ms total)
T2B88 000:707 JLINK_IsHalted()  returns FALSE (0001ms, 0248ms total)
T2B88 000:709 JLINK_IsHalted()  returns FALSE (0001ms, 0248ms total)
T2B88 000:711 JLINK_IsHalted()  returns FALSE (0001ms, 0248ms total)
T2B88 000:713 JLINK_IsHalted()  returns FALSE (0001ms, 0248ms total)
T2B88 000:716 JLINK_IsHalted()  returns FALSE (0001ms, 0248ms total)
T2B88 000:718 JLINK_IsHalted()  returns FALSE (0001ms, 0248ms total)
T2B88 000:721 JLINK_IsHalted() -- CPU_ReadMem(2 bytes @ 0x20000000)  returns TRUE (0004ms, 0251ms total)
T2B88 000:725 JLINK_ReadReg(R15)  returns 0x20000000 (0000ms, 0247ms total)
T2B88 000:725 JLINK_ClrBPEx(BPHandle = 0x0000000A)  returns 0x00 (0000ms, 0247ms total)
T2B88 000:725 JLINK_ReadReg(R0)  returns 0x00000000 (0000ms, 0247ms total)
T2B88 000:725 JLINK_WriteMem(0x20000164, 0x0400 Bytes, ...) -- Data:  04 40 44 F0 07 04 4F F6 8F 70 04 40 44 F0 70 04 ... -- CPU_WriteMem(1024 bytes @ 0x20000164)  returns 0x400 (0013ms, 0260ms total)
T2B88 000:738 JLINK_WriteReg(R0, 0x08001800)  returns 0x00 (0000ms, 0260ms total)
T2B88 000:738 JLINK_WriteReg(R1, 0x00000400)  returns 0x00 (0000ms, 0260ms total)
T2B88 000:738 JLINK_WriteReg(R2, 0x20000164)  returns 0x00 (0000ms, 0260ms total)
T2B88 000:738 JLINK_WriteReg(R3, 0x00000000)  returns 0x00 (0000ms, 0260ms total)
T2B88 000:738 JLINK_WriteReg(R4, 0x00000000)  returns 0x00 (0000ms, 0260ms total)
T2B88 000:738 JLINK_WriteReg(R5, 0x00000000)  returns 0x00 (0000ms, 0260ms total)
T2B88 000:738 JLINK_WriteReg(R6, 0x00000000)  returns 0x00 (0000ms, 0260ms total)
T2B88 000:738 JLINK_WriteReg(R7, 0x00000000)  returns 0x00 (0000ms, 0260ms total)
T2B88 000:738 JLINK_WriteReg(R8, 0x00000000)  returns 0x00 (0000ms, 0260ms total)
T2B88 000:738 JLINK_WriteReg(R9, 0x20000160)  returns 0x00 (0000ms, 0260ms total)
T2B88 000:738 JLINK_WriteReg(R10, 0x00000000)  returns 0x00 (0000ms, 0260ms total)
T2B88 000:738 JLINK_WriteReg(R11, 0x00000000)  returns 0x00 (0000ms, 0260ms total)
T2B88 000:738 JLINK_WriteReg(R12, 0x00000000)  returns 0x00 (0000ms, 0260ms total)
T2B88 000:738 JLINK_WriteReg(R13, 0x20000800)  returns 0x00 (0001ms, 0261ms total)
T2B88 000:739 JLINK_WriteReg(R14, 0x20000001)  returns 0x00 (0000ms, 0261ms total)
T2B88 000:739 JLINK_WriteReg(R15, 0x200000F4)  returns 0x00 (0000ms, 0261ms total)
T2B88 000:739 JLINK_WriteReg(XPSR, 0x01000000)  returns 0x00 (0000ms, 0261ms total)
T2B88 000:739 JLINK_WriteReg(MSP, 0x20000800)  returns 0x00 (0000ms, 0261ms total)
T2B88 000:739 JLINK_WriteReg(PSP, 0x20000800)  returns 0x00 (0000ms, 0261ms total)
T2B88 000:739 JLINK_WriteReg(CFBP, 0x00000000)  returns 0x00 (0000ms, 0261ms total)
T2B88 000:739 JLINK_SetBPEx(Addr = 0x20000000, Type = 0xFFFFFFF2)  returns 0x0000000B (0000ms, 0261ms total)
T2B88 000:739 JLINK_Go() (0001ms, 0262ms total)
T2B88 000:740 JLINK_IsHalted()  returns FALSE (0001ms, 0263ms total)
T2B88 000:746 JLINK_IsHalted()  returns FALSE (0001ms, 0263ms total)
T2B88 000:748 JLINK_IsHalted()  returns FALSE (0001ms, 0263ms total)
T2B88 000:750 JLINK_IsHalted()  returns FALSE (0001ms, 0263ms total)
T2B88 000:753 JLINK_IsHalted()  returns FALSE (0000ms, 0262ms total)
T2B88 000:755 JLINK_IsHalted()  returns FALSE (0000ms, 0262ms total)
T2B88 000:782 JLINK_IsHalted() -- CPU_ReadMem(2 bytes @ 0x20000000)  returns TRUE (0004ms, 0266ms total)
T2B88 000:786 JLINK_ReadReg(R15)  returns 0x20000000 (0000ms, 0262ms total)
T2B88 000:786 JLINK_ClrBPEx(BPHandle = 0x0000000B)  returns 0x00 (0000ms, 0262ms total)
T2B88 000:786 JLINK_ReadReg(R0)  returns 0x00000000 (0000ms, 0262ms total)
T2B88 000:786 JLINK_WriteMem(0x20000164, 0x0400 Bytes, ...) -- Data:  4F F6 7F 73 1A 40 02 81 02 89 0A 43 02 81 70 47 ... -- CPU_WriteMem(1024 bytes @ 0x20000164)  returns 0x400 (0013ms, 0275ms total)
T2B88 000:799 JLINK_WriteReg(R0, 0x08001C00)  returns 0x00 (0000ms, 0275ms total)
T2B88 000:799 JLINK_WriteReg(R1, 0x00000400)  returns 0x00 (0000ms, 0275ms total)
T2B88 000:799 JLINK_WriteReg(R2, 0x20000164)  returns 0x00 (0000ms, 0275ms total)
T2B88 000:799 JLINK_WriteReg(R3, 0x00000000)  returns 0x00 (0000ms, 0275ms total)
T2B88 000:799 JLINK_WriteReg(R4, 0x00000000)  returns 0x00 (0000ms, 0275ms total)
T2B88 000:799 JLINK_WriteReg(R5, 0x00000000)  returns 0x00 (0000ms, 0275ms total)
T2B88 000:799 JLINK_WriteReg(R6, 0x00000000)  returns 0x00 (0000ms, 0275ms total)
T2B88 000:799 JLINK_WriteReg(R7, 0x00000000)  returns 0x00 (0000ms, 0275ms total)
T2B88 000:799 JLINK_WriteReg(R8, 0x00000000)  returns 0x00 (0000ms, 0275ms total)
T2B88 000:799 JLINK_WriteReg(R9, 0x20000160)  returns 0x00 (0000ms, 0275ms total)
T2B88 000:799 JLINK_WriteReg(R10, 0x00000000)  returns 0x00 (0000ms, 0275ms total)
T2B88 000:799 JLINK_WriteReg(R11, 0x00000000)  returns 0x00 (0000ms, 0275ms total)
T2B88 000:799 JLINK_WriteReg(R12, 0x00000000)  returns 0x00 (0000ms, 0275ms total)
T2B88 000:799 JLINK_WriteReg(R13, 0x20000800)  returns 0x00 (0000ms, 0275ms total)
T2B88 000:799 JLINK_WriteReg(R14, 0x20000001)  returns 0x00 (0000ms, 0275ms total)
T2B88 000:799 JLINK_WriteReg(R15, 0x200000F4)  returns 0x00 (0000ms, 0275ms total)
T2B88 000:799 JLINK_WriteReg(XPSR, 0x01000000)  returns 0x00 (0000ms, 0275ms total)
T2B88 000:799 JLINK_WriteReg(MSP, 0x20000800)  returns 0x00 (0000ms, 0275ms total)
T2B88 000:799 JLINK_WriteReg(PSP, 0x20000800)  returns 0x00 (0000ms, 0275ms total)
T2B88 000:799 JLINK_WriteReg(CFBP, 0x00000000)  returns 0x00 (0000ms, 0275ms total)
T2B88 000:799 JLINK_SetBPEx(Addr = 0x20000000, Type = 0xFFFFFFF2)  returns 0x0000000C (0001ms, 0276ms total)
T2B88 000:800 JLINK_Go() (0001ms, 0277ms total)
T2B88 000:801 JLINK_IsHalted()  returns FALSE (0001ms, 0278ms total)
T2B88 000:808 JLINK_IsHalted()  returns FALSE (0000ms, 0277ms total)
T2B88 000:810 JLINK_IsHalted()  returns FALSE (0000ms, 0277ms total)
T2B88 000:812 JLINK_IsHalted()  returns FALSE (0000ms, 0277ms total)
T2B88 000:814 JLINK_IsHalted()  returns FALSE (0000ms, 0277ms total)
T2B88 000:816 JLINK_IsHalted()  returns FALSE (0000ms, 0277ms total)
T2B88 000:818 JLINK_IsHalted()  returns FALSE (0000ms, 0277ms total)
T2B88 000:820 JLINK_IsHalted()  returns FALSE (0000ms, 0277ms total)
T2B88 000:828 JLINK_IsHalted()  returns FALSE (0000ms, 0277ms total)
T2B88 000:830 JLINK_IsHalted()  returns FALSE (0001ms, 0278ms total)
T2B88 000:838 JLINK_IsHalted() -- CPU_ReadMem(2 bytes @ 0x20000000)  returns TRUE (0004ms, 0281ms total)
T2B88 000:842 JLINK_ReadReg(R15)  returns 0x20000000 (0000ms, 0277ms total)
T2B88 000:842 JLINK_ClrBPEx(BPHandle = 0x0000000C)  returns 0x00 (0000ms, 0277ms total)
T2B88 000:842 JLINK_ReadReg(R0)  returns 0x00000000 (0000ms, 0277ms total)
T2B88 000:844 JLINK_WriteMem(0x20000164, 0x0400 Bytes, ...) -- Data:  00 D1 00 BF 13 88 0B 42 01 D0 01 20 00 E0 00 20 ... -- CPU_WriteMem(1024 bytes @ 0x20000164)  returns 0x400 (0012ms, 0289ms total)
T2B88 000:856 JLINK_WriteReg(R0, 0x08002000)  returns 0x00 (0000ms, 0289ms total)
T2B88 000:856 JLINK_WriteReg(R1, 0x00000400)  returns 0x00 (0000ms, 0289ms total)
T2B88 000:856 JLINK_WriteReg(R2, 0x20000164)  returns 0x00 (0000ms, 0289ms total)
T2B88 000:856 JLINK_WriteReg(R3, 0x00000000)  returns 0x00 (0000ms, 0289ms total)
T2B88 000:856 JLINK_WriteReg(R4, 0x00000000)  returns 0x00 (0000ms, 0289ms total)
T2B88 000:856 JLINK_WriteReg(R5, 0x00000000)  returns 0x00 (0000ms, 0289ms total)
T2B88 000:856 JLINK_WriteReg(R6, 0x00000000)  returns 0x00 (0000ms, 0289ms total)
T2B88 000:856 JLINK_WriteReg(R7, 0x00000000)  returns 0x00 (0000ms, 0289ms total)
T2B88 000:856 JLINK_WriteReg(R8, 0x00000000)  returns 0x00 (0000ms, 0289ms total)
T2B88 000:856 JLINK_WriteReg(R9, 0x20000160)  returns 0x00 (0000ms, 0289ms total)
T2B88 000:856 JLINK_WriteReg(R10, 0x00000000)  returns 0x00 (0000ms, 0289ms total)
T2B88 000:856 JLINK_WriteReg(R11, 0x00000000)  returns 0x00 (0000ms, 0289ms total)
T2B88 000:856 JLINK_WriteReg(R12, 0x00000000)  returns 0x00 (0000ms, 0289ms total)
T2B88 000:856 JLINK_WriteReg(R13, 0x20000800)  returns 0x00 (0000ms, 0289ms total)
T2B88 000:856 JLINK_WriteReg(R14, 0x20000001)  returns 0x00 (0000ms, 0289ms total)
T2B88 000:856 JLINK_WriteReg(R15, 0x200000F4)  returns 0x00 (0000ms, 0289ms total)
T2B88 000:856 JLINK_WriteReg(XPSR, 0x01000000)  returns 0x00 (0000ms, 0289ms total)
T2B88 000:856 JLINK_WriteReg(MSP, 0x20000800)  returns 0x00 (0000ms, 0289ms total)
T2B88 000:856 JLINK_WriteReg(PSP, 0x20000800)  returns 0x00 (0000ms, 0289ms total)
T2B88 000:856 JLINK_WriteReg(CFBP, 0x00000000)  returns 0x00 (0000ms, 0289ms total)
T2B88 000:856 JLINK_SetBPEx(Addr = 0x20000000, Type = 0xFFFFFFF2)  returns 0x0000000D (0000ms, 0289ms total)
T2B88 000:856 JLINK_Go() (0003ms, 0292ms total)
T2B88 000:859 JLINK_IsHalted()  returns FALSE (0001ms, 0293ms total)
T2B88 000:899 JLINK_IsHalted() -- CPU_ReadMem(2 bytes @ 0x20000000)  returns TRUE (0004ms, 0296ms total)
T2B88 000:903 JLINK_ReadReg(R15)  returns 0x20000000 (0000ms, 0292ms total)
T2B88 000:903 JLINK_ClrBPEx(BPHandle = 0x0000000D)  returns 0x00 (0000ms, 0292ms total)
T2B88 000:903 JLINK_ReadReg(R0)  returns 0x00000000 (0000ms, 0292ms total)
T2B88 000:904 JLINK_WriteMem(0x20000164, 0x0400 Bytes, ...) -- Data:  00 78 30 B1 01 28 43 D0 02 28 65 D0 03 28 64 D1 ... -- CPU_WriteMem(1024 bytes @ 0x20000164)  returns 0x400 (0012ms, 0304ms total)
T2B88 000:916 JLINK_WriteReg(R0, 0x08002400)  returns 0x00 (0000ms, 0304ms total)
T2B88 000:916 JLINK_WriteReg(R1, 0x00000400)  returns 0x00 (0000ms, 0304ms total)
T2B88 000:916 JLINK_WriteReg(R2, 0x20000164)  returns 0x00 (0000ms, 0304ms total)
T2B88 000:916 JLINK_WriteReg(R3, 0x00000000)  returns 0x00 (0000ms, 0304ms total)
T2B88 000:916 JLINK_WriteReg(R4, 0x00000000)  returns 0x00 (0000ms, 0304ms total)
T2B88 000:916 JLINK_WriteReg(R5, 0x00000000)  returns 0x00 (0000ms, 0304ms total)
T2B88 000:916 JLINK_WriteReg(R6, 0x00000000)  returns 0x00 (0000ms, 0304ms total)
T2B88 000:916 JLINK_WriteReg(R7, 0x00000000)  returns 0x00 (0000ms, 0304ms total)
T2B88 000:916 JLINK_WriteReg(R8, 0x00000000)  returns 0x00 (0000ms, 0304ms total)
T2B88 000:916 JLINK_WriteReg(R9, 0x20000160)  returns 0x00 (0000ms, 0304ms total)
T2B88 000:916 JLINK_WriteReg(R10, 0x00000000)  returns 0x00 (0000ms, 0304ms total)
T2B88 000:916 JLINK_WriteReg(R11, 0x00000000)  returns 0x00 (0000ms, 0304ms total)
T2B88 000:916 JLINK_WriteReg(R12, 0x00000000)  returns 0x00 (0000ms, 0304ms total)
T2B88 000:916 JLINK_WriteReg(R13, 0x20000800)  returns 0x00 (0000ms, 0304ms total)
T2B88 000:916 JLINK_WriteReg(R14, 0x20000001)  returns 0x00 (0000ms, 0304ms total)
T2B88 000:916 JLINK_WriteReg(R15, 0x200000F4)  returns 0x00 (0000ms, 0304ms total)
T2B88 000:916 JLINK_WriteReg(XPSR, 0x01000000)  returns 0x00 (0000ms, 0304ms total)
T2B88 000:916 JLINK_WriteReg(MSP, 0x20000800)  returns 0x00 (0000ms, 0304ms total)
T2B88 000:916 JLINK_WriteReg(PSP, 0x20000800)  returns 0x00 (0000ms, 0304ms total)
T2B88 000:916 JLINK_WriteReg(CFBP, 0x00000000)  returns 0x00 (0001ms, 0305ms total)
T2B88 000:917 JLINK_SetBPEx(Addr = 0x20000000, Type = 0xFFFFFFF2)  returns 0x0000000E (0000ms, 0305ms total)
T2B88 000:917 JLINK_Go() (0002ms, 0307ms total)
T2B88 000:919 JLINK_IsHalted()  returns FALSE (0000ms, 0307ms total)
T2B88 000:923 JLINK_IsHalted()  returns FALSE (0001ms, 0308ms total)
T2B88 000:931 JLINK_IsHalted()  returns FALSE (0001ms, 0308ms total)
T2B88 000:933 JLINK_IsHalted()  returns FALSE (0001ms, 0308ms total)
T2B88 000:935 JLINK_IsHalted()  returns FALSE (0001ms, 0308ms total)
T2B88 000:938 JLINK_IsHalted()  returns FALSE (0000ms, 0307ms total)
T2B88 000:940 JLINK_IsHalted()  returns FALSE (0001ms, 0308ms total)
T2B88 000:942 JLINK_IsHalted()  returns FALSE (0001ms, 0308ms total)
T2B88 000:945 JLINK_IsHalted()  returns FALSE (0000ms, 0307ms total)
T2B88 000:951 JLINK_IsHalted() -- CPU_ReadMem(2 bytes @ 0x20000000)  returns TRUE (0005ms, 0312ms total)
T2B88 000:956 JLINK_ReadReg(R15)  returns 0x20000000 (0000ms, 0307ms total)
T2B88 000:956 JLINK_ClrBPEx(BPHandle = 0x0000000E)  returns 0x00 (0000ms, 0307ms total)
T2B88 000:956 JLINK_ReadReg(R0)  returns 0x00000000 (0000ms, 0307ms total)
T2B88 000:957 JLINK_WriteMem(0x20000164, 0x0400 Bytes, ...) -- Data:  05 46 61 49 05 F0 D6 FE 2B D2 66 48 00 78 08 28 ... -- CPU_WriteMem(1024 bytes @ 0x20000164)  returns 0x400 (0012ms, 0319ms total)
T2B88 000:969 JLINK_WriteReg(R0, 0x08002800)  returns 0x00 (0000ms, 0319ms total)
T2B88 000:969 JLINK_WriteReg(R1, 0x00000400)  returns 0x00 (0000ms, 0319ms total)
T2B88 000:969 JLINK_WriteReg(R2, 0x20000164)  returns 0x00 (0000ms, 0319ms total)
T2B88 000:969 JLINK_WriteReg(R3, 0x00000000)  returns 0x00 (0000ms, 0319ms total)
T2B88 000:969 JLINK_WriteReg(R4, 0x00000000)  returns 0x00 (0000ms, 0319ms total)
T2B88 000:969 JLINK_WriteReg(R5, 0x00000000)  returns 0x00 (0000ms, 0319ms total)
T2B88 000:969 JLINK_WriteReg(R6, 0x00000000)  returns 0x00 (0000ms, 0319ms total)
T2B88 000:969 JLINK_WriteReg(R7, 0x00000000)  returns 0x00 (0000ms, 0319ms total)
T2B88 000:969 JLINK_WriteReg(R8, 0x00000000)  returns 0x00 (0000ms, 0319ms total)
T2B88 000:969 JLINK_WriteReg(R9, 0x20000160)  returns 0x00 (0000ms, 0319ms total)
T2B88 000:969 JLINK_WriteReg(R10, 0x00000000)  returns 0x00 (0000ms, 0319ms total)
T2B88 000:969 JLINK_WriteReg(R11, 0x00000000)  returns 0x00 (0000ms, 0319ms total)
T2B88 000:969 JLINK_WriteReg(R12, 0x00000000)  returns 0x00 (0000ms, 0319ms total)
T2B88 000:969 JLINK_WriteReg(R13, 0x20000800)  returns 0x00 (0000ms, 0319ms total)
T2B88 000:969 JLINK_WriteReg(R14, 0x20000001)  returns 0x00 (0000ms, 0319ms total)
T2B88 000:969 JLINK_WriteReg(R15, 0x200000F4)  returns 0x00 (0000ms, 0319ms total)
T2B88 000:969 JLINK_WriteReg(XPSR, 0x01000000)  returns 0x00 (0000ms, 0319ms total)
T2B88 000:969 JLINK_WriteReg(MSP, 0x20000800)  returns 0x00 (0000ms, 0319ms total)
T2B88 000:969 JLINK_WriteReg(PSP, 0x20000800)  returns 0x00 (0000ms, 0319ms total)
T2B88 000:969 JLINK_WriteReg(CFBP, 0x00000000)  returns 0x00 (0000ms, 0319ms total)
T2B88 000:969 JLINK_SetBPEx(Addr = 0x20000000, Type = 0xFFFFFFF2)  returns 0x0000000F (0000ms, 0319ms total)
T2B88 000:969 JLINK_Go() (0003ms, 0322ms total)
T2B88 000:972 JLINK_IsHalted()  returns FALSE (0001ms, 0323ms total)
T2B88 001:016 JLINK_IsHalted() -- CPU_ReadMem(2 bytes @ 0x20000000)  returns TRUE (0004ms, 0326ms total)
T2B88 001:020 JLINK_ReadReg(R15)  returns 0x20000000 (0000ms, 0322ms total)
T2B88 001:020 JLINK_ClrBPEx(BPHandle = 0x0000000F)  returns 0x00 (0000ms, 0322ms total)
T2B88 001:020 JLINK_ReadReg(R0)  returns 0x00000000 (0000ms, 0322ms total)
T2B88 001:020 JLINK_WriteMem(0x20000164, 0x0400 Bytes, ...) -- Data:  22 49 08 70 4F F4 80 50 FD F7 B7 FD 4F F4 00 50 ... -- CPU_WriteMem(1024 bytes @ 0x20000164)  returns 0x400 (0013ms, 0335ms total)
T2B88 001:033 JLINK_WriteReg(R0, 0x08002C00)  returns 0x00 (0000ms, 0335ms total)
T2B88 001:033 JLINK_WriteReg(R1, 0x00000400)  returns 0x00 (0000ms, 0335ms total)
T2B88 001:033 JLINK_WriteReg(R2, 0x20000164)  returns 0x00 (0000ms, 0335ms total)
T2B88 001:033 JLINK_WriteReg(R3, 0x00000000)  returns 0x00 (0000ms, 0335ms total)
T2B88 001:033 JLINK_WriteReg(R4, 0x00000000)  returns 0x00 (0000ms, 0335ms total)
T2B88 001:033 JLINK_WriteReg(R5, 0x00000000)  returns 0x00 (0000ms, 0335ms total)
T2B88 001:033 JLINK_WriteReg(R6, 0x00000000)  returns 0x00 (0000ms, 0335ms total)
T2B88 001:033 JLINK_WriteReg(R7, 0x00000000)  returns 0x00 (0000ms, 0335ms total)
T2B88 001:033 JLINK_WriteReg(R8, 0x00000000)  returns 0x00 (0000ms, 0335ms total)
T2B88 001:033 JLINK_WriteReg(R9, 0x20000160)  returns 0x00 (0000ms, 0335ms total)
T2B88 001:033 JLINK_WriteReg(R10, 0x00000000)  returns 0x00 (0000ms, 0335ms total)
T2B88 001:033 JLINK_WriteReg(R11, 0x00000000)  returns 0x00 (0000ms, 0335ms total)
T2B88 001:033 JLINK_WriteReg(R12, 0x00000000)  returns 0x00 (0000ms, 0335ms total)
T2B88 001:033 JLINK_WriteReg(R13, 0x20000800)  returns 0x00 (0000ms, 0335ms total)
T2B88 001:033 JLINK_WriteReg(R14, 0x20000001)  returns 0x00 (0000ms, 0335ms total)
T2B88 001:033 JLINK_WriteReg(R15, 0x200000F4)  returns 0x00 (0000ms, 0335ms total)
T2B88 001:033 JLINK_WriteReg(XPSR, 0x01000000)  returns 0x00 (0000ms, 0335ms total)
T2B88 001:033 JLINK_WriteReg(MSP, 0x20000800)  returns 0x00 (0000ms, 0335ms total)
T2B88 001:033 JLINK_WriteReg(PSP, 0x20000800)  returns 0x00 (0000ms, 0335ms total)
T2B88 001:033 JLINK_WriteReg(CFBP, 0x00000000)  returns 0x00 (0000ms, 0335ms total)
T2B88 001:033 JLINK_SetBPEx(Addr = 0x20000000, Type = 0xFFFFFFF2)  returns 0x00000010 (0000ms, 0335ms total)
T2B88 001:033 JLINK_Go() (0003ms, 0338ms total)
T2B88 001:036 JLINK_IsHalted()  returns FALSE (0000ms, 0338ms total)
T2B88 001:044 JLINK_IsHalted()  returns FALSE (0001ms, 0339ms total)
T2B88 001:046 JLINK_IsHalted()  returns FALSE (0000ms, 0338ms total)
T2B88 001:048 JLINK_IsHalted()  returns FALSE (0001ms, 0339ms total)
T2B88 001:055 JLINK_IsHalted()  returns FALSE (0000ms, 0338ms total)
T2B88 001:057 JLINK_IsHalted()  returns FALSE (0000ms, 0338ms total)
T2B88 001:059 JLINK_IsHalted()  returns FALSE (0000ms, 0338ms total)
T2B88 001:060 JLINK_IsHalted()  returns FALSE (0001ms, 0339ms total)
T2B88 001:063 JLINK_IsHalted()  returns FALSE (0000ms, 0338ms total)
T2B88 001:065 JLINK_IsHalted()  returns FALSE (0000ms, 0338ms total)
T2B88 001:067 JLINK_IsHalted() -- CPU_ReadMem(2 bytes @ 0x20000000)  returns TRUE (0003ms, 0341ms total)
T2B88 001:071 JLINK_ReadReg(R15)  returns 0x20000000 (0000ms, 0338ms total)
T2B88 001:071 JLINK_ClrBPEx(BPHandle = 0x00000010)  returns 0x00 (0000ms, 0338ms total)
T2B88 001:071 JLINK_ReadReg(R0)  returns 0x00000000 (0000ms, 0338ms total)
T2B88 001:071 JLINK_WriteMem(0x20000164, 0x0400 Bytes, ...) -- Data:  00 24 00 94 01 94 02 94 00 20 0D E0 32 F9 10 40 ... -- CPU_WriteMem(1024 bytes @ 0x20000164)  returns 0x400 (0013ms, 0351ms total)
T2B88 001:084 JLINK_WriteReg(R0, 0x08003000)  returns 0x00 (0001ms, 0352ms total)
T2B88 001:085 JLINK_WriteReg(R1, 0x00000400)  returns 0x00 (0000ms, 0352ms total)
T2B88 001:085 JLINK_WriteReg(R2, 0x20000164)  returns 0x00 (0000ms, 0352ms total)
T2B88 001:085 JLINK_WriteReg(R3, 0x00000000)  returns 0x00 (0000ms, 0352ms total)
T2B88 001:085 JLINK_WriteReg(R4, 0x00000000)  returns 0x00 (0000ms, 0352ms total)
